Осциллограмма,0
7,7A,0D
1,Ua,A,,V,54.812,0,34.7252,0,4095
2,Ub,B,,V,54.812,0,69.4474,0,4095
3,Uc,C,,V,54.812,0,104.17,0,4095
4,Ia,A,,A,4.88281,0,34.7252,0,4095
5,Ib,B,,A,4.88281,0,69.4474,0,4095
6,Ic,C,,A,4.88281,0,104.17,0,4095
7,I0,N,,A,5.85938,0,277.775,0,4095
50
1
1800,2159
06/13/09,19:14:31.123215
06/13/09,19:14:31.323215
ASCII
0000000001,0000000000,-01707,001128,000604,000058,-00091,000040,000005
0000000002,0000000556,-01741,000873,000887,000067,-00086,000026,000005
0000000003,0000001111,-01741,000596,001155,000076,-00078,000010,000004
0000000004,0000001667,-01680,000314,001367,000084,-00068,-00007,000004
0000000005,0000002222,-01548,000017,001525,000090,-00058,-00023,000004
0000000006,0000002778,-01362,-00288,001644,000093,-00045,-00038,000003
0000000007,0000003333,-01140,-00583,001716,000093,-00033,-00051,000001
0000000008,0000003889,-00890,-00870,001739,000089,-00018,-00061,000000
0000000009,0000004444,-00619,-01136,001739,000081,-00003,-00070,-00001
0000000010,0000005000,-00332,-01355,001672,000072,000015,-00080,-00003
0000000011,0000005556,-00035,-01522,001536,000061,000031,-00087,-00003
0000000012,0000006111,000274,-01646,001345,000049,000047,-00091,-00005
0000000013,0000006667,000568,-01719,001121,000035,000060,-00091,-00005
0000000014,0000007222,000850,-01743,000867,000020,000069,-00087,-00007
0000000015,0000007778,001113,-01743,000596,000004,000077,-00081,-00008
0000000016,0000008333,001332,-01675,000313,-00014,000085,-00073,-00009
0000000017,0000008889,001500,-01542,000012,-00030,000092,-00064,-00010
0000000018,0000009444,001629,-01352,-00301,-00045,000093,-00053,-00010
0000000019,0000010000,001710,-01128,-00599,-00057,000093,-00041,-00011
0000000020,0000010556,001741,-00872,-00885,-00067,000088,-00027,-00011
0000000021,0000011111,001741,-00597,-01149,-00075,000080,-00010,-00011
0000000022,0000011667,001678,-00313,-01363,-00083,000070,000008,-00010
0000000023,0000012222,001549,-00017,-01522,-00090,000059,000024,-00010
0000000024,0000012778,001364,000289,-01641,-00093,000047,000039,-00008
0000000025,0000013333,001142,000585,-01712,-00093,000034,000051,-00008
0000000026,0000013889,000891,000869,-01737,-00088,000021,000061,-00006
0000000027,0000014444,000618,001135,-01737,-00082,000005,000070,-00004
0000000028,0000015000,000335,001357,-01668,-00072,-00013,000080,-00003
0000000029,0000015556,000036,001521,-01531,-00062,-00029,000088,-00003
0000000030,0000016111,-00273,001645,-01342,-00049,-00045,000091,-00002
0000000031,0000016667,-00567,001717,-01117,-00035,-00057,000091,000000
0000000032,0000017222,-00848,001742,-00864,-00020,-00067,000087,000002
0000000033,0000017778,-01113,001742,-00595,-00004,-00074,000081,000003
0000000034,0000018333,-01328,001675,-00307,000013,-00082,000072,000003
0000000035,0000018889,-01500,001540,-00008,000030,-00089,000063,000005
0000000036,0000019444,-01628,001352,000302,000046,-00091,000052,000005
0000000037,0000020000,-01707,001128,000601,000058,-00091,000040,000005
0000000038,0000020556,-01741,000874,000887,000068,-00086,000026,000005
0000000039,0000021111,-01741,000599,001154,000076,-00078,000011,000005
0000000040,0000021667,-01678,000313,001367,000084,-00068,-00007,000005
0000000041,0000022222,-01549,000018,001526,000090,-00057,-00023,000003
0000000042,0000022778,-01365,-00289,001644,000093,-00045,-00039,000002
0000000043,0000023333,-01143,-00583,001716,000093,-00032,-00051,000001
0000000044,0000023889,-00892,-00867,001740,000089,-00019,-00061,000000
0000000045,0000024444,-00620,-01136,001740,000082,-00003,-00070,-00001
0000000046,0000025000,-00335,-01356,001673,000072,000015,-00079,-00002
0000000047,0000025556,-00036,-01523,001535,000061,000031,-00087,-00004
0000000048,0000026111,000275,-01645,001346,000049,000048,-00091,-00005
0000000049,0000026667,000567,-01715,001122,000035,000060,-00091,-00005
0000000050,0000027222,000847,-01744,000869,000021,000069,-00087,-00007
0000000051,0000027778,001112,-01744,000598,000004,000077,-00081,-00008
0000000052,0000028333,001332,-01677,000314,-00014,000085,-00073,-00008
0000000053,0000028889,001500,-01541,000014,-00029,000092,-00064,-00010
0000000054,0000029444,001629,-01353,-00298,-00045,000093,-00053,-00011
0000000055,0000030000,001708,-01126,-00597,-00058,000093,-00041,-00011
0000000056,0000030556,001743,-00873,-00884,-00068,000088,-00026,-00011
0000000057,0000031111,001743,-00597,-01150,-00075,000080,-00011,-00011
0000000058,0000031667,001679,-00314,-01363,-00083,000070,000007,-00010
0000000059,0000032222,001547,-00018,-01523,-00090,000060,000024,-00010
0000000060,0000032778,001363,000288,-01640,-00093,000047,000039,-00009
0000000061,0000033333,001142,000580,-01712,-00093,000035,000051,-00007
0000000062,0000033889,000893,000868,-01737,-00088,000020,000061,-00006
0000000063,0000034444,000620,001136,-01737,-00082,000005,000070,-00004
0000000064,0000035000,000337,001355,-01666,-00072,-00013,000079,-00004
0000000065,0000035556,000039,001521,-01534,-00062,-00030,000087,-00002
0000000066,0000036111,-00273,001647,-01343,-00049,-00045,000091,-00002
0000000067,0000036667,-00565,001719,-01115,-00035,-00058,000091,000000
0000000068,0000037222,-00844,001742,-00865,-00020,-00066,000087,000002
0000000069,0000037778,-01113,001742,-00596,-00004,-00075,000080,000002
0000000070,0000038333,-01330,001673,-00309,000013,-00082,000072,000004
0000000071,0000038889,-01499,001542,-00010,000030,-00088,000063,000004
0000000072,0000039444,-01629,001353,000301,000046,-00091,000053,000004
0000000073,0000040000,-01708,001128,000600,000058,-00091,000041,000005
0000000074,0000040556,-01742,000876,000887,000068,-00086,000027,000005
0000000075,0000041111,-01742,000597,001152,000075,-00078,000011,000005
0000000076,0000041667,-01680,000314,001365,000084,-00068,-00007,000004
0000000077,0000042222,-01549,000018,001525,000090,-00057,-00024,000004
0000000078,0000042778,-01365,-00293,001643,000093,-00045,-00039,000003
0000000079,0000043333,-01142,-00583,001716,000093,-00032,-00050,000001
0000000080,0000043889,-00891,-00868,001741,000088,-00018,-00060,000000
0000000081,0000044444,-00621,-01134,001741,000082,-00003,-00070,-00001
0000000082,0000045000,-00336,-01355,001672,000072,000015,-00079,-00002
0000000083,0000045556,-00038,-01518,001536,000062,000032,-00086,-00003
0000000084,0000046111,000272,-01645,001346,000049,000047,-00091,-00004
0000000085,0000046667,000565,-01717,001123,000035,000059,-00091,-00006
0000000086,0000047222,000847,-01743,000871,000020,000068,-00087,-00007
0000000087,0000047778,001113,-01743,000599,000004,000077,-00080,-00008
0000000088,0000048333,001331,-01676,000315,-00013,000085,-00072,-00010
0000000089,0000048889,001500,-01541,000012,-00030,000091,-00063,-00010
0000000090,0000049444,001630,-01352,-00298,-00046,000094,-00053,-00010
0000000091,0000050000,001709,-01130,-00597,-00058,000094,-00041,-00011
0000000092,0000050556,001741,-00874,-00884,-00067,000088,-00027,-00011
0000000093,0000051111,001741,-00599,-01147,-00075,000080,-00011,-00011
0000000094,0000051667,001678,-00313,-01362,-00084,000069,000007,-00010
0000000095,0000052222,001551,-00019,-01523,-00090,000059,000023,-00010
0000000096,0000052778,001363,000292,-01640,-00093,000048,000038,-00008
0000000097,0000053333,001143,000581,-01710,-00093,000035,000051,-00007
0000000098,0000053889,000893,000865,-01738,-00088,000021,000061,-00006
0000000099,0000054444,000621,001137,-01738,-00082,000005,000070,-00005
0000000100,0000055000,000336,001355,-01668,-00072,-00012,000080,-00003
0000000101,0000055556,000036,001522,-01531,-00062,-00029,000087,-00002
0000000102,0000056111,-00271,001646,-01341,-00049,-00045,000090,-00001
0000000103,0000056667,-00565,001718,-01116,-00035,-00057,000090,-00001
0000000104,0000057222,-00846,001744,-00868,-00020,-00066,000087,000001
0000000105,0000057778,-01112,001744,-00596,-00004,-00074,000080,000002
0000000106,0000058333,-01329,001678,-00312,000013,-00083,000072,000003
0000000107,0000058889,-01500,001544,-00011,000030,-00089,000063,000004
0000000108,0000059444,-01627,001355,000301,000046,-00091,000052,000005
0000000109,0000060000,-01707,001127,000600,000058,-00091,000040,000005
0000000110,0000060556,-01742,000876,000887,000067,-00086,000027,000005
0000000111,0000061111,-01742,000599,001154,000075,-00078,000011,000005
0000000112,0000061667,-01679,000313,001367,000083,-00068,-00007,000004
0000000113,0000062222,-01549,000020,001526,000090,-00058,-00023,000004
0000000114,0000062778,-01364,-00289,001644,000093,-00045,-00038,000002
0000000115,0000063333,-01143,-00583,001718,000093,-00033,-00051,000001
0000000116,0000063889,-00895,-00868,001742,000089,-00019,-00060,000000
0000000117,0000064444,-00619,-01135,001742,000082,-00004,-00070,-00001
0000000118,0000065000,-00336,-01354,001674,000072,000014,-00079,-00002
0000000119,0000065556,-00037,-01522,001537,000062,000031,-00086,-00003
0000000120,0000066111,000272,-01645,001349,000049,000047,-00090,-00004
0000000121,0000066667,000566,-01715,001123,000035,000059,-00090,-00006
0000000122,0000067222,000845,-01742,000871,000021,000069,-00086,-00007
0000000123,0000067778,001112,-01742,000599,000005,000076,-00081,-00008
0000000124,0000068333,001331,-01676,000314,-00013,000085,-00073,-00009
0000000125,0000068889,001502,-01541,000013,-00030,000091,-00064,-00010
0000000126,0000069444,001630,-01356,-00298,-00045,000093,-00053,-00011
0000000127,0000070000,001710,-01129,-00596,-00057,000093,-00040,-00011
0000000128,0000070556,001741,-00876,-00883,-00067,000088,-00027,-00011
0000000129,0000071111,001741,-00599,-01147,-00075,000080,-00011,-00011
0000000130,0000071667,001679,-00315,-01363,-00083,000069,000007,-00010
0000000131,0000072222,001548,-00020,-01522,-00089,000059,000023,-00009
0000000132,0000072778,001365,000288,-01640,-00093,000047,000038,-00009
0000000133,0000073333,001145,000580,-01712,-00093,000035,000051,-00007
0000000134,0000073889,000896,000865,-01733,-00089,000021,000060,-00006
0000000135,0000074444,000623,001134,-01733,-00081,000006,000070,-00005
0000000136,0000075000,000336,001355,-01669,-00072,-00012,000079,-00003
0000000137,0000075556,000037,001521,-01533,-00062,-00028,000086,-00003
0000000138,0000076111,-00271,001646,-01344,-00049,-00044,000091,-00001
0000000139,0000076667,-00564,001716,-01119,-00035,-00057,000091,-00001
0000000140,0000077222,-00846,001744,-00867,-00021,-00066,000087,000001
0000000141,0000077778,-01111,001744,-00596,-00004,-00074,000081,000002
0000000142,0000078333,-01330,001677,-00311,000013,-00082,000072,000004
0000000143,0000078889,-01498,001544,-00012,000030,-00089,000063,000004
0000000144,0000079444,-01629,001357,000303,000046,-00091,000052,000005
0000000145,0000080000,-01708,001129,000599,000058,-00091,000041,000005
0000000146,0000080556,-01741,000876,000886,000067,-00086,000027,000005
0000000147,0000081111,-01741,000601,001150,000075,-00078,000012,000004
0000000148,0000081667,-01678,000316,001365,000084,-00068,-00008,000004
0000000149,0000082222,-01550,000018,001528,000090,-00058,-00024,000004
0000000150,0000082778,-01364,-00289,001644,000093,-00045,-00038,000002
0000000151,0000083333,-01144,-00581,001717,000093,-00033,-00051,000001
0000000152,0000083889,-00894,-00868,001739,000089,-00019,-00060,000000
0000000153,0000084444,-00621,-01134,001739,000082,-00003,-00069,-00001
0000000154,0000085000,-00337,-01354,001672,000073,000014,-00080,-00002
0000000155,0000085556,-00039,-01520,001537,000062,000031,-00086,-00003
0000000156,0000086111,000271,-01645,001349,000049,000047,-00090,-00005
0000000157,0000086667,000564,-01716,001123,000035,000059,-00090,-00006
0000000158,0000087222,000846,-01744,000870,000021,000068,-00087,-00007
0000000159,0000087778,001110,-01744,000601,000005,000076,-00080,-00008
0000000160,0000088333,001329,-01677,000315,-00012,000085,-00073,-00009
0000000161,0000088889,001500,-01543,000015,-00030,000090,-00063,-00010
0000000162,0000089444,001629,-01353,-00297,-00045,000094,-00052,-00011
0000000163,0000090000,001708,-01130,-00595,-00057,000094,-00041,-00011
0000000164,0000090556,001741,-00875,-00881,-00067,000088,-00027,-00011
0000000165,0000091111,001741,-00598,-01146,-00075,000081,-00011,-00011
0000000166,0000091667,001681,-00316,-01363,-00083,000070,000007,-00010
0000000167,0000092222,001550,-00017,-01522,-00090,000059,000023,-00010
0000000168,0000092778,001367,000288,-01640,-00093,000048,000038,-00009
0000000169,0000093333,001146,000582,-01710,-00093,000035,000050,-00007
0000000170,0000093889,000894,000866,-01736,-00089,000021,000060,-00006
0000000171,0000094444,000624,001135,-01736,-00082,000006,000070,-00004
0000000172,0000095000,000338,001355,-01668,-00072,-00012,000079,-00004
0000000173,0000095556,000041,001521,-01531,-00062,-00028,000087,-00002
0000000174,0000096111,-00272,001646,-01343,-00049,-00044,000091,-00001
0000000175,0000096667,-00563,001718,-01120,-00035,-00056,000091,000000
0000000176,0000097222,-00844,001744,-00868,-00021,-00066,000086,000002
0000000177,0000097778,-01111,001744,-00596,-00004,-00074,000080,000002
0000000178,0000098333,-01330,001678,-00313,000013,-00082,000072,000004
0000000179,0000098889,-01499,001546,-00010,000030,-00089,000063,000005
0000000180,0000099444,-01629,001356,000300,000045,-00092,000052,000005
0000000181,0000100000,-01709,001132,000598,000057,-00092,000041,000005
0000000182,0000100556,-01742,000875,000884,000067,-00087,000027,000005
0000000183,0000101111,-01742,000600,001149,000075,-00078,000012,000005
0000000184,0000101667,-01679,000316,001364,000084,-00068,-00007,000005
0000000185,0000102222,-01548,000021,001524,000090,-00058,-00023,000003
0000000186,0000102778,-01366,-00284,001645,000093,-00046,-00038,000003
0000000187,0000103333,-01144,-00580,001718,000093,-00033,-00051,000001
0000000188,0000103889,-00894,-00866,001740,000088,-00019,-00060,000000
0000000189,0000104444,-00621,-01136,001740,000082,-00004,-00069,-00001
0000000190,0000105000,-00339,-01354,001674,000072,000014,-00079,-00002
0000000191,0000105556,-00038,-01522,001536,000062,000031,-00086,-00003
0000000192,0000106111,000272,-01647,001349,000049,000046,-00090,-00005
0000000193,0000106667,000564,-01716,001125,000036,000059,-00090,-00005
0000000194,0000107222,000845,-01743,000872,000021,000068,-00086,-00007
0000000195,0000107778,001112,-01743,000601,000005,000076,-00080,-00008
0000000196,0000108333,001332,-01677,000316,-00013,000085,-00072,-00009
0000000197,0000108889,001500,-01543,000015,-00029,000091,-00063,-00010
0000000198,0000109444,001629,-01356,-00295,-00045,000094,-00053,-00011
0000000199,0000110000,001708,-01129,-00594,-00057,000094,-00041,-00011
0000000200,0000110556,001742,-00878,-00881,-00067,000088,-00027,-00011
0000000201,0000111111,001742,-00599,-01148,-00075,000080,-00012,-00011
0000000202,0000111667,001681,-00315,-01361,-00083,000070,000007,-00010
0000000203,0000112222,001551,-00020,-01522,-00090,000059,000023,-00009
0000000204,0000112778,001367,000287,-01639,-00093,000048,000038,-00009
0000000205,0000113333,001146,000581,-01711,-00093,000035,000050,-00007
0000000206,0000113889,000896,000862,-01735,-00089,000022,000060,-00006
0000000207,0000114444,000622,001135,-01735,-00081,000006,000069,-00005
0000000208,0000115000,000339,001353,-01667,-00073,-00012,000079,-00003
0000000209,0000115556,000040,001522,-01533,-00062,-00028,000086,-00003
0000000210,0000116111,-00271,001644,-01342,-00049,-00043,000090,-00002
0000000211,0000116667,-00562,001719,-01120,-00035,-00056,000090,-00001
0000000212,0000117222,-00845,001746,-00870,-00021,-00066,000086,000001
0000000213,0000117778,-01109,001746,-00598,-00005,-00074,000080,000002
0000000214,0000118333,-01329,001677,-00312,000013,-00082,000072,000004
0000000215,0000118889,-01497,001544,-00012,000030,-00088,000063,000004
0000000216,0000119444,-01628,001357,000299,000046,-00091,000053,000005
0000000217,0000120000,-01708,001131,000597,000058,-00091,000041,000005
0000000218,0000120556,-01741,000877,000884,000068,-00086,000027,000005
0000000219,0000121111,-01741,000602,001149,000075,-00078,000012,000005
0000000220,0000121667,-01680,000317,001365,000083,-00068,-00007,000004
0000000221,0000122222,-01549,000019,001526,000090,-00058,-00023,000004
0000000222,0000122778,-01366,-00286,001643,000093,-00046,-00037,000003
0000000223,0000123333,-01144,-00580,001716,000093,-00033,-00049,000001
0000000224,0000123889,-00894,-00865,001739,000089,-00019,-00059,000000
0000000225,0000124444,-00621,-01134,001739,000082,-00005,-00069,-00002
0000000226,0000125000,-00337,-01354,001674,000073,000008,-00073,-00002
0000000227,0000125556,-00040,-01510,001535,000062,000024,-00080,-00004
0000000228,0000126111,000269,-01646,001349,000049,000039,-00085,-00005
0000000229,0000126667,000564,-01719,001125,000035,000052,-00085,-00006
0000000230,0000127222,000843,-01744,000874,000021,000063,-00082,-00007
0000000231,0000127778,001112,-01744,000603,000005,000071,-00077,-00008
0000000232,0000128333,001329,-01681,000318,-00012,000080,-00070,-00009
0000000233,0000128889,001498,-01546,000018,-00029,000088,-00062,-00010
0000000234,0000129444,001629,-01359,-00292,-00045,000093,-00052,-00011
0000000235,0000130000,001709,-01134,-00592,-00057,000093,-00041,-00011
0000000236,0000130556,001743,-00878,-00879,-00066,000089,-00027,-00011
0000000237,0000131111,001743,-00602,-01144,-00075,000080,-00012,-00011
0000000238,0000131667,001681,-00318,-01361,-00083,000070,000006,-00010
0000000239,0000132222,001551,-00022,-01523,-00090,000061,000023,-00009
0000000240,0000132778,001368,000284,-01640,-00093,000052,000034,-00008
0000000241,0000133333,001146,000575,-01707,-00093,000041,000045,-00007
0000000242,0000133889,000899,000859,-01734,-00089,000028,000054,-00006
0000000243,0000134444,000625,001130,-01734,-00082,000013,000064,-00004
0000000244,0000135000,000339,001350,-01667,-00072,000000,000073,-00003
0000000245,0000135556,000040,001520,-01532,-00062,-00020,000080,-00002
0000000246,0000136111,-00270,001645,-01343,-00049,-00037,000084,-00001
0000000247,0000136667,-00562,001717,-01120,-00035,-00050,000084,-00001
0000000248,0000137222,-00846,001745,-00869,-00021,-00059,000081,000002
0000000249,0000137778,-01108,001745,-00598,-00006,-00069,000076,000002
0000000250,0000138333,-01330,001680,-00315,000013,-00078,000069,000004
0000000251,0000138889,-01500,001544,-00016,000030,-00086,000061,000004
0000000252,0000139444,-01629,001362,000296,000045,-00091,000051,000005
0000000253,0000140000,-01707,001137,000594,000058,-00091,000040,000005
0000000254,0000140556,-01742,000882,000881,000067,-00087,000028,000005
0000000255,0000141111,-01742,000604,001149,000075,-00079,000013,000005
0000000256,0000141667,-01681,000319,001363,000083,-00069,-00001,000004
0000000257,0000142222,-01551,000024,001523,000090,-00061,-00020,000004
0000000258,0000142778,-01367,-00281,001641,000093,-00051,-00033,000002
0000000259,0000143333,-01146,-00577,001714,000093,-00039,-00045,000001
0000000260,0000143889,-00896,-00862,001739,000089,-00027,-00054,000000
0000000261,0000144444,-00624,-01130,001739,000082,-00012,-00063,-00002
0000000262,0000145000,-00339,-01352,001673,000072,000006,-00072,-00002
0000000263,0000145556,-00040,-01522,001536,000062,000022,-00079,-00004
0000000264,0000146111,000269,-01644,001348,000049,000038,-00083,-00005
0000000265,0000146667,000562,-01717,001126,000036,000052,-00083,-00006
0000000266,0000147222,000842,-01747,000874,000020,000061,-00081,-00007
0000000267,0000147778,001109,-01747,000605,000005,000071,-00075,-00008
0000000268,0000148333,001330,-01680,000319,-00012,000080,-00068,-00009
0000000269,0000148889,001498,-01547,000020,-00029,000088,-00061,-00010
0000000270,0000149444,001629,-01362,-00292,-00045,000093,-00052,-00011
0000000271,0000150000,001708,-01134,-00591,-00057,000093,-00041,-00011
0000000272,0000150556,001741,-00882,-00877,-00067,000089,-00028,-00011
0000000273,0000151111,001741,-00605,-01146,-00075,000081,-00013,-00011
0000000274,0000151667,001679,-00321,-01358,-00083,000072,000000,-00010
0000000275,0000152222,001552,-00027,-01518,-00090,000064,000019,-00010
0000000276,0000152778,001367,000280,-01635,-00092,000054,000033,-00008
